name,type,start_time,duration,"ack","address","read","data"
"I2C","start",11.23781955,0.00000005,,,,
"I2C","address",11.23783155,0.00008495,false,0x30,false,
"I2C","data",11.2379216,0.000085,false,,,0x00
"I2C","start",11.23802225,0.00000005,,,,
"I2C","address",11.2380317,0.000085,true,0x50,false,
"I2C","data",11.2381218,0.000085,true,,,0x00
"I2C","start",11.2382224,0.00000005,,,,
"I2C","address",11.2382319,0.000085,true,0x50,true,
"I2C","data",11.238322,0.00008495,true,,,0x00
"I2C","data",11.2384121,0.00008495,true,,,0xFF
"I2C","data",11.23850215,0.00008495,true,,,0xFF
"I2C","data",11.23859225,0.00008495,true,,,0xFF
"I2C","data",11.2386823,0.000085,true,,,0xFF
"I2C","data",11.2387724,0.00008495,true,,,0xFF
"I2C","data",11.23886245,0.000085,true,,,0xFF
"I2C","data",11.23895255,0.00008495,true,,,0x00
"I2C","data",11.2390426,0.000085,true,,,0x10
"I2C","data",11.2391327,0.00008495,true,,,0xAC
"I2C","data",11.23922275,0.000085,true,,,0xEB
"I2C","data",11.23931285,0.000085,true,,,0xA1
"I2C","data",11.23940295,0.00008495,true,,,0x42
"I2C","data",11.239493,0.000085,true,,,0x50
"I2C","data",11.2395831,0.000085,true,,,0x33
"I2C","data",11.2396732,0.00008495,false,,,0x30
"I2C","stop",11.23977075,0.00000005,,,,
"I2C","start",11.23991965,0.00000005,,,,
"I2C","address",11.23993165,0.000085,false,0x30,false,
"I2C","data",11.24002175,0.00008495,false,,,0x00
"I2C","start",11.24012235,0.00000005,,,,
"I2C","address",11.24013185,0.00008495,true,0x50,false,
"I2C","data",11.2402219,0.000085,true,,,0x10
"I2C","start",11.2403225,0.00000005,,,,
"I2C","address",11.240332,0.000085,true,0x50,true,
"I2C","data",11.2404221,0.000085,true,,,0x2B
"I2C","data",11.2405122,0.00008495,true,,,0x21
"I2C","data",11.24060225,0.000085,true,,,0x01
"I2C","data",11.24069235,0.000085,true,,,0x03
"I2C","data",11.24078245,0.00008495,true,,,0x80
"I2C","data",11.2408725,0.000085,true,,,0x34
"I2C","data",11.2409626,0.000085,true,,,0x20
"I2C","data",11.2410527,0.000085,true,,,0x78
"I2C","data",11.2411428,0.00008495,true,,,0xEA
"I2C","data",11.24123285,0.000085,true,,,0xE9
"I2C","data",11.24132295,0.000085,true,,,0x05
"I2C","data",11.24141305,0.000085,true,,,0xAB
"I2C","data",11.24150315,0.00008495,true,,,0x52
"I2C","data",11.2415932,0.000085,true,,,0x4F
"I2C","data",11.2416833,0.00008495,true,,,0x9D
"I2C","data",11.2417734,0.00008495,false,,,0x25
"I2C","stop",11.24187095,0.00000005,,,,
"I2C","start",11.2420238,0.00000005,,,,
"I2C","address",11.24203585,0.00008495,false,0x30,false,
"I2C","data",11.2421259,0.000085,false,,,0x00
"I2C","start",11.2422265,0.00000005,,,,
"I2C","address",11.242236,0.000085,true,0x50,false,
"I2C","data",11.2423261,0.00008495,true,,,0x20
"I2C","start",11.2424267,0.00000005,,,,
"I2C","address",11.2424362,0.00008495,true,0x50,true,
"I2C","data",11.24252625,0.000085,true,,,0x0F
"I2C","data",11.24261635,0.000085,true,,,0x50
"I2C","data",11.24270645,0.00008495,true,,,0x54
"I2C","data",11.2427965,0.000085,true,,,0xA5
"I2C","data",11.2428866,0.000085,true,,,0x4B
"I2C","data",11.2429767,0.000085,true,,,0x00
"I2C","data",11.2430668,0.00008495,true,,,0x71
"I2C","data",11.24315685,0.000085,true,,,0x4F
"I2C","data",11.24324695,0.00008495,true,,,0x81
"I2C","data",11.243337,0.000085,true,,,0x80
"I2C","data",11.2434271,0.000085,true,,,0xA9
"I2C","data",11.2435172,0.00008495,true,,,0x40
"I2C","data",11.2436073,0.00008495,true,,,0xD1
"I2C","data",11.24369735,0.000085,true,,,0xC0
"I2C","data",11.24378745,0.000085,true,,,0xD1
"I2C","data",11.24387755,0.00008495,false,,,0x00
"I2C","stop",11.2439751,0.00000005,,,,
"I2C","start",11.244128,0.00000005,,,,
"I2C","address",11.24414,0.000085,false,0x30,false,
"I2C","data",11.2442301,0.000085,false,,,0x00
"I2C","start",11.2443307,0.00000005,,,,
"I2C","address",11.2443402,0.000085,true,0x50,false,
"I2C","data",11.2444303,0.000085,true,,,0x30
"I2C","start",11.2445309,0.00000005,,,,
"I2C","address",11.2445404,0.000085,true,0x50,true,
"I2C","data",11.2446305,0.000085,true,,,0x81
"I2C","data",11.2447206,0.00008495,true,,,0xC0
"I2C","data",11.24481065,0.000085,true,,,0x81
"I2C","data",11.24490075,0.000085,true,,,0xCF
"I2C","data",11.24499085,0.00008495,true,,,0x01
"I2C","data",11.2450809,0.000085,true,,,0x01
"I2C","data",11.245171,0.000085,true,,,0x28
"I2C","data",11.2452611,0.00008495,true,,,0x3C
"I2C","data",11.24535115,0.000085,true,,,0x80
"I2C","data",11.24544125,0.000085,true,,,0xA0
"I2C","data",11.24553135,0.00008495,true,,,0x70
"I2C","data",11.2456214,0.000085,true,,,0xB0
"I2C","data",11.2457115,0.000085,true,,,0x23
"I2C","data",11.2458016,0.00008495,true,,,0x40
"I2C","data",11.24589165,0.000085,true,,,0x30
"I2C","data",11.24598175,0.000085,false,,,0x20
"I2C","stop",11.24607935,0.00000005,,,,
"I2C","start",11.24622725,0.00000005,,,,
"I2C","address",11.24623925,0.000085,false,0x30,false,
"I2C","data",11.24632935,0.000085,false,,,0x00
"I2C","start",11.24642995,0.00000005,,,,
"I2C","address",11.24643945,0.000085,true,0x50,false,
"I2C","data",11.24652955,0.00008495,true,,,0x40
"I2C","start",11.24663015,0.00000005,,,,
"I2C","address",11.24663965,0.000085,true,0x50,true,
"I2C","data",11.24672975,0.00008495,true,,,0x36
"I2C","data",11.2468198,0.000085,true,,,0x00
"I2C","data",11.2469099,0.000085,true,,,0x06
"I2C","data",11.247,0.00008495,true,,,0x44
"I2C","data",11.24709005,0.000085,true,,,0x21
"I2C","data",11.24718015,0.000085,true,,,0x00
"I2C","data",11.24727025,0.00008495,true,,,0x00
"I2C","data",11.2473603,0.000085,true,,,0x1A
"I2C","data",11.2474504,0.000085,true,,,0x00
"I2C","data",11.24754045,0.000085,true,,,0x00
"I2C","data",11.24763055,0.000085,true,,,0x00
"I2C","data",11.24772065,0.000085,true,,,0xFF
"I2C","data",11.24781075,0.000085,true,,,0x00
"I2C","data",11.24790085,0.000085,true,,,0x48
"I2C","data",11.24799095,0.00008495,true,,,0x38
"I2C","data",11.24808105,0.00008495,false,,,0x4A
"I2C","stop",11.2481786,0.00000005,,,,
"I2C","start",11.2483315,0.00000005,,,,
"I2C","address",11.2483435,0.000085,false,0x30,false,
"I2C","data",11.2484336,0.000085,false,,,0x00
"I2C","start",11.2485342,0.00000005,,,,
"I2C","address",11.2485437,0.000085,true,0x50,false,
"I2C","data",11.2486338,0.00008495,true,,,0x50
"I2C","start",11.2487344,0.00000005,,,,
"I2C","address",11.2487439,0.00008495,true,0x50,true,
"I2C","data",11.248834,0.00008495,true,,,0x4B
"I2C","data",11.24892405,0.000085,true,,,0x42
"I2C","data",11.24901415,0.000085,true,,,0x4D
"I2C","data",11.24910425,0.00008495,true,,,0x33
"I2C","data",11.2491943,0.000085,true,,,0x0A
"I2C","data",11.2492844,0.000085,true,,,0x20
"I2C","data",11.2493745,0.000085,true,,,0x20
"I2C","data",11.2494646,0.00008495,true,,,0x20
"I2C","data",11.24955465,0.000085,true,,,0x20
"I2C","data",11.24964475,0.000085,true,,,0x20
"I2C","data",11.24973485,0.000085,true,,,0x00
"I2C","data",11.24982495,0.00008495,true,,,0x00
"I2C","data",11.24991505,0.00008495,true,,,0x00
"I2C","data",11.2500051,0.000085,true,,,0xFC
"I2C","data",11.2500952,0.000085,true,,,0x00
"I2C","data",11.2501853,0.000085,false,,,0x44
"I2C","stop",11.25028285,0.00000005,,,,
"I2C","start",11.2504298,0.00000005,,,,
"I2C","address",11.2504418,0.00008495,false,0x30,false,
"I2C","data",11.25053185,0.000085,false,,,0x00
"I2C","start",11.2506325,0.00000005,,,,
"I2C","address",11.25064195,0.000085,true,0x50,false,
"I2C","data",11.25073205,0.000085,true,,,0x60
"I2C","start",11.25083265,0.00000005,,,,
"I2C","address",11.25084215,0.000085,true,0x50,true,
"I2C","data",11.25093225,0.000085,true,,,0x45
"I2C","data",11.25102235,0.00008495,true,,,0x4C
"I2C","data",11.2511124,0.000085,true,,,0x4C
"I2C","data",11.2512025,0.00008495,true,,,0x20
"I2C","data",11.2512926,0.00008495,true,,,0x50
"I2C","data",11.25138265,0.00008495,true,,,0x32
"I2C","data",11.25147275,0.00008495,true,,,0x34
"I2C","data",11.2515628,0.000085,true,,,0x32
"I2C","data",11.2516529,0.00008495,true,,,0x33
"I2C","data",11.25174295,0.000085,true,,,0x0A
"I2C","data",11.25183305,0.000085,true,,,0x20
"I2C","data",11.25192315,0.00008495,true,,,0x20
"I2C","data",11.2520132,0.000085,true,,,0x00
"I2C","data",11.2521033,0.000085,true,,,0x00
"I2C","data",11.2521934,0.00008495,true,,,0x00
"I2C","data",11.25228345,0.000085,false,,,0xFD
"I2C","stop",11.252381,0.00000005,,,,
"I2C","start",11.2525339,0.00000005,,,,
"I2C","address",11.2525459,0.000085,false,0x30,false,
"I2C","data",11.252636,0.000085,false,,,0x00
"I2C","start",11.2527366,0.00000005,,,,
"I2C","address",11.2527461,0.000085,true,0x50,false,
"I2C","data",11.2528362,0.00008495,true,,,0x70
"I2C","start",11.2529368,0.00000005,,,,
"I2C","address",11.2529463,0.00008495,true,0x50,true,
"I2C","data",11.25303635,0.000085,true,,,0x00
"I2C","data",11.25312645,0.00008495,true,,,0x38
"I2C","data",11.25321655,0.00008495,true,,,0x4C
"I2C","data",11.2533066,0.000085,true,,,0x1E
"I2C","data",11.2533967,0.00008495,true,,,0x53
"I2C","data",11.25348675,0.000085,true,,,0x11
"I2C","data",11.25357685,0.000085,true,,,0x00
"I2C","data",11.25366695,0.00008495,true,,,0x0A
"I2C","data",11.253757,0.000085,true,,,0x20
"I2C","data",11.2538471,0.00008495,true,,,0x20
"I2C","data",11.25393715,0.000085,true,,,0x20
"I2C","data",11.25402725,0.00008495,true,,,0x20
"I2C","data",11.2541173,0.000085,true,,,0x20
"I2C","data",11.2542074,0.000085,true,,,0x20
"I2C","data",11.2542975,0.00008495,true,,,0x01
"I2C","data",11.25438755,0.000085,false,,,0x03
"I2C","stop",11.2544851,0.00000005,,,,
"I2C","start",11.25465995,0.00000005,,,,
"I2C","address",11.25467195,0.000085,false,0x30,false,
"I2C","data",11.25476205,0.00008495,false,,,0x00
"I2C","start",11.25486265,0.00000005,,,,
"I2C","address",11.25487215,0.00008495,true,0x50,false,
"I2C","data",11.2549622,0.000085,true,,,0x80
"I2C","start",11.25506285,0.00000005,,,,
"I2C","address",11.2550723,0.000085,true,0x50,true,
"I2C","data",11.2551624,0.000085,true,,,0x02
"I2C","data",11.2552525,0.00008495,true,,,0x03
"I2C","data",11.25534255,0.000085,true,,,0x18
"I2C","data",11.25543265,0.00008495,true,,,0xB1
"I2C","data",11.25552275,0.00008495,true,,,0x4A
"I2C","data",11.2556128,0.000085,true,,,0x90
"I2C","data",11.2557029,0.000085,true,,,0x05
"I2C","data",11.255793,0.00008495,true,,,0x04
"I2C","data",11.25588305,0.000085,true,,,0x03
"I2C","data",11.25597315,0.000085,true,,,0x02
"I2C","data",11.25606325,0.000085,true,,,0x12
"I2C","data",11.25615335,0.000085,true,,,0x13
"I2C","data",11.25624345,0.00008495,true,,,0x01
"I2C","data",11.2563335,0.000085,true,,,0x14
"I2C","data",11.2564236,0.000085,true,,,0x1F
"I2C","data",11.2565137,0.000085,false,,,0x65
"I2C","stop",11.25661125,0.00000005,,,,
"I2C","start",11.25676415,0.00000005,,,,
"I2C","address",11.25677615,0.000085,false,0x30,false,
"I2C","data",11.25686625,0.000085,false,,,0x00
"I2C","start",11.25696685,0.00000005,,,,
"I2C","address",11.25697635,0.000085,true,0x50,false,
"I2C","data",11.25706645,0.00008495,true,,,0x90
"I2C","start",11.25716705,0.00000005,,,,
"I2C","address",11.25717655,0.00008495,true,0x50,true,
"I2C","data",11.25726665,0.00008495,true,,,0x03
"I2C","data",11.2573567,0.000085,true,,,0x0C
"I2C","data",11.2574468,0.000085,true,,,0x00
"I2C","data",11.2575369,0.00008495,true,,,0x10
"I2C","data",11.257627,0.00008495,true,,,0x00
"I2C","data",11.2577171,0.00008495,true,,,0xE2
"I2C","data",11.25780715,0.000085,true,,,0x00
"I2C","data",11.25789725,0.000085,true,,,0x6A
"I2C","data",11.25798735,0.000085,true,,,0x02
"I2C","data",11.25807745,0.00008495,true,,,0x3A
"I2C","data",11.2581675,0.000085,true,,,0x80
"I2C","data",11.2582576,0.000085,true,,,0x18
"I2C","data",11.2583477,0.000085,true,,,0x71
"I2C","data",11.2584378,0.00008495,true,,,0x38
"I2C","data",11.25852785,0.000085,true,,,0x2D
"I2C","data",11.25861795,0.000085,false,,,0x40
"I2C","stop",11.2587155,0.00000005,,,,
"I2C","start",11.2588674,0.00000005,,,,
"I2C","address",11.25887945,0.00008495,false,0x30,false,
"I2C","data",11.2589695,0.000085,false,,,0x00
"I2C","start",11.2590701,0.00000005,,,,
"I2C","address",11.2590796,0.000085,true,0x50,false,
"I2C","data",11.2591697,0.000085,true,,,0xA0
"I2C","start",11.2592703,0.00000005,,,,
"I2C","address",11.2592798,0.000085,true,0x50,true,
"I2C","data",11.2593699,0.00008495,true,,,0x58
"I2C","data",11.25946,0.00008495,true,,,0x2C
"I2C","data",11.25955005,0.000085,true,,,0x45
"I2C","data",11.25964015,0.00008495,true,,,0x00
"I2C","data",11.2597302,0.000085,true,,,0x06
"I2C","data",11.2598203,0.000085,true,,,0x44
"I2C","data",11.2599104,0.00008495,true,,,0x21
"I2C","data",11.2600005,0.00008495,true,,,0x00
"I2C","data",11.26009055,0.000085,true,,,0x00
"I2C","data",11.26018065,0.00008495,true,,,0x1E
"I2C","data",11.26027075,0.00008495,true,,,0x01
"I2C","data",11.2603608,0.000085,true,,,0x1D
"I2C","data",11.2604509,0.000085,true,,,0x80
"I2C","data",11.260541,0.00008495,true,,,0x18
"I2C","data",11.26063105,0.000085,true,,,0x71
"I2C","data",11.26072115,0.000085,false,,,0x1C
"I2C","stop",11.2608187,0.00000005,,,,
"I2C","start",11.2609726,0.00000005,,,,
"I2C","address",11.2609846,0.000085,false,0x30,false,
"I2C","data",11.2610747,0.000085,false,,,0x00
"I2C","start",11.2611753,0.00000005,,,,
"I2C","address",11.2611848,0.000085,true,0x50,false,
"I2C","data",11.2612749,0.000085,true,,,0xB0
"I2C","start",11.2613755,0.00000005,,,,
"I2C","address",11.261385,0.000085,true,0x50,true,
"I2C","data",11.2614751,0.000085,true,,,0x16
"I2C","data",11.2615652,0.00008495,true,,,0x20
"I2C","data",11.26165525,0.000085,true,,,0x58
"I2C","data",11.26174535,0.000085,true,,,0x2C
"I2C","data",11.26183545,0.000085,true,,,0x25
"I2C","data",11.26192555,0.00008495,true,,,0x00
"I2C","data",11.2620156,0.000085,true,,,0x06
"I2C","data",11.2621057,0.000085,true,,,0x44
"I2C","data",11.2621958,0.000085,true,,,0x21
"I2C","data",11.2622859,0.00008495,true,,,0x00
"I2C","data",11.26237595,0.000085,true,,,0x00
"I2C","data",11.26246605,0.000085,true,,,0x9E
"I2C","data",11.26255615,0.000085,true,,,0x01
"I2C","data",11.26264625,0.00008495,true,,,0x1D
"I2C","data",11.2627363,0.000085,true,,,0x00
"I2C","data",11.2628264,0.00008495,false,,,0x72
"I2C","stop",11.26292395,0.00000005,,,,
"I2C","start",11.26307485,0.00000005,,,,
"I2C","address",11.26308685,0.00008495,false,0x30,false,
"I2C","data",11.26317695,0.00008495,false,,,0x00
"I2C","start",11.26327755,0.00000005,,,,
"I2C","address",11.26328705,0.00008495,true,0x50,false,
"I2C","data",11.2633771,0.000085,true,,,0xC0
"I2C","start",11.2634777,0.00000005,,,,
"I2C","address",11.2634872,0.000085,true,0x50,true,
"I2C","data",11.2635773,0.000085,true,,,0x51
"I2C","data",11.2636674,0.00008495,true,,,0xD0
"I2C","data",11.26375745,0.000085,true,,,0x1E
"I2C","data",11.26384755,0.000085,true,,,0x20
"I2C","data",11.26393765,0.000085,true,,,0x6E
"I2C","data",11.26402775,0.00008495,true,,,0x28
"I2C","data",11.2641178,0.000085,true,,,0x55
"I2C","data",11.2642079,0.00008495,true,,,0x00
"I2C","data",11.26429795,0.000085,true,,,0x06
"I2C","data",11.26438805,0.00008495,true,,,0x44
"I2C","data",11.2644781,0.000085,true,,,0x21
"I2C","data",11.2645682,0.000085,true,,,0x00
"I2C","data",11.2646583,0.00008495,true,,,0x00
"I2C","data",11.2647484,0.00008495,true,,,0x1E
"I2C","data",11.26483845,0.000085,true,,,0x8C
"I2C","data",11.26492855,0.000085,false,,,0x0A
"I2C","stop",11.2650261,0.00000005,,,,
"I2C","start",11.26517305,0.00000005,,,,
"I2C","address",11.26518505,0.000085,false,0x30,false,
"I2C","data",11.26527515,0.00008495,false,,,0x00
"I2C","start",11.26537575,0.00000005,,,,
"I2C","address",11.26538525,0.00008495,true,0x50,false,
"I2C","data",11.2654753,0.000085,true,,,0xD0
"I2C","start",11.2655759,0.00000005,,,,
"I2C","address",11.2655854,0.000085,true,0x50,true,
"I2C","data",11.2656755,0.000085,true,,,0xD0
"I2C","data",11.2657656,0.00008495,true,,,0x8A
"I2C","data",11.26585565,0.000085,true,,,0x20
"I2C","data",11.26594575,0.000085,true,,,0xE0
"I2C","data",11.26603585,0.00008495,true,,,0x2D
"I2C","data",11.2661259,0.000085,true,,,0x10
"I2C","data",11.266216,0.000085,true,,,0x10
"I2C","data",11.2663061,0.00008495,true,,,0x3E
"I2C","data",11.2663962,0.00008495,true,,,0x96
"I2C","data",11.26648625,0.000085,true,,,0x00
"I2C","data",11.26657635,0.00008495,true,,,0x06
"I2C","data",11.26666645,0.00008495,true,,,0x44
"I2C","data",11.2667565,0.00008495,true,,,0x21
"I2C","data",11.26684655,0.000085,true,,,0x00
"I2C","data",11.26693665,0.00008495,true,,,0x00
"I2C","data",11.2670267,0.000085,false,,,0x18
"I2C","stop",11.2671243,0.00000005,,,,
"I2C","start",11.2672752,0.00000005,,,,
"I2C","address",11.2672872,0.00008495,false,0x30,false,
"I2C","data",11.26737725,0.000085,false,,,0x00
"I2C","start",11.26747785,0.00000005,,,,
"I2C","address",11.26748735,0.000085,true,0x50,false,
"I2C","data",11.26757745,0.00008495,true,,,0xE0
"I2C","start",11.26767805,0.00000005,,,,
"I2C","address",11.26768755,0.00008495,true,0x50,true,
"I2C","data",11.2677776,0.000085,true,,,0x00
"I2C","data",11.2678677,0.000085,true,,,0x00
"I2C","data",11.2679578,0.00008495,true,,,0x00
"I2C","data",11.26804785,0.000085,true,,,0x00
"I2C","data",11.26813795,0.000085,true,,,0x00
"I2C","data",11.26822805,0.00008495,true,,,0x00
"I2C","data",11.26831815,0.00008495,true,,,0x00
"I2C","data",11.2684082,0.000085,true,,,0x00
"I2C","data",11.2684983,0.00008495,true,,,0x00
"I2C","data",11.26858835,0.000085,true,,,0x00
"I2C","data",11.26867845,0.000085,true,,,0x00
"I2C","data",11.26876855,0.00008495,true,,,0x00
"I2C","data",11.2688586,0.000085,true,,,0x00
"I2C","data",11.2689487,0.00008495,true,,,0x00
"I2C","data",11.2690388,0.00008495,true,,,0x00
"I2C","data",11.26912885,0.000085,false,,,0x00
"I2C","stop",11.2692264,0.00000005,,,,
"I2C","start",11.2693773,0.00000005,,,,
"I2C","address",11.2693893,0.000085,false,0x30,false,
"I2C","data",11.2694794,0.00008495,false,,,0x00
"I2C","start",11.26958,0.00000005,,,,
"I2C","address",11.2695895,0.000085,true,0x50,false,
"I2C","data",11.2696796,0.00008495,true,,,0xF0
"I2C","start",11.2697802,0.00000005,,,,
"I2C","address",11.2697897,0.00008495,true,0x50,true,
"I2C","data",11.26987975,0.000085,true,,,0x00
"I2C","data",11.26996985,0.000085,true,,,0x00
"I2C","data",11.27005995,0.00008495,true,,,0x00
"I2C","data",11.27015,0.000085,true,,,0x00
"I2C","data",11.2702401,0.000085,true,,,0x00
"I2C","data",11.2703302,0.00008495,true,,,0x00
"I2C","data",11.2704203,0.00008495,true,,,0x00
"I2C","data",11.27051035,0.000085,true,,,0x00
"I2C","data",11.27060045,0.000085,true,,,0x00
"I2C","data",11.27069055,0.000085,true,,,0x00
"I2C","data",11.27078065,0.00008495,true,,,0x00
"I2C","data",11.2708707,0.000085,true,,,0x00
"I2C","data",11.2709608,0.000085,true,,,0x00
"I2C","data",11.2710509,0.00008495,true,,,0x00
"I2C","data",11.27114095,0.000085,true,,,0x00
"I2C","data",11.27123105,0.00008495,false,,,0xC3
"I2C","stop",11.2713286,0.00000005,,,,
"I2C","start",13.74804755,0.00000005,,,,
"I2C","address",13.74805955,0.000085,true,0x37,false,
"I2C","data",13.74814965,0.000085,true,,,0x51
"I2C","data",13.74823975,0.000085,true,,,0x84
"I2C","data",13.74832985,0.000085,true,,,0x03
"I2C","data",13.74841995,0.00008495,true,,,0xD6
"I2C","data",13.74851005,0.00008495,true,,,0x00
"I2C","data",13.7486001,0.000085,true,,,0x01
"I2C","data",13.7486902,0.000085,true,,,0x6F
"I2C","stop",13.7487878,0.00000005,,,,
"I2C","start",15.518604,0.00000005,,,,
"I2C","address",15.518616,0.00008505,true,0x3A,false,
"I2C","data",15.51870615,0.0000851,true,,,0x50
"I2C","start",15.51880685,0.00000005,,,,
"I2C","address",15.51881635,0.0000851,true,0x3A,true,
"I2C","data",15.51890655,0.00008505,false,,,0x00
"I2C","stop",15.5190042,0.00000005,,,,
"I2C","start",17.5164797,0.00000005,,,,
"I2C","address",17.51649175,0.00008505,true,0x3A,false,
"I2C","data",17.51658195,0.00008505,true,,,0x41
"I2C","start",17.51668265,0.00000005,,,,
"I2C","address",17.51669215,0.0000851,true,0x3A,true,
"I2C","data",17.51678235,0.0000851,true,,,0x00
"I2C","data",17.51687255,0.00008505,false,,,0x10
"I2C","stop",17.5169702,0.00000005,,,,
"I2C","start",17.51700775,0.00000005,,,,
"I2C","address",17.51701975,0.0000851,true,0x3A,false,
"I2C","data",17.51710995,0.0000851,true,,,0x40
"I2C","start",17.51721065,0.00000005,,,,
"I2C","address",17.5172202,0.00008505,true,0x3A,true,
"I2C","data",17.51731035,0.0000851,false,,,0x83
"I2C","stop",17.51740805,0.00000005,,,,
"I2C","start",17.51743885,0.00000005,,,,
"I2C","address",17.51745085,0.0000851,true,0x3A,false,
"I2C","data",17.51754105,0.0000851,true,,,0x00
"I2C","start",17.5176418,0.00000005,,,,
"I2C","address",17.5176513,0.0000851,true,0x3A,true,
"I2C","data",17.5177415,0.00008505,true,,,0x82
"I2C","data",17.5178317,0.00008505,true,,,0xF9
"I2C","data",17.51792185,0.0000851,true,,,0x33
"I2C","data",17.51801205,0.0000851,true,,,0x19
"I2C","data",17.51810225,0.0000851,false,,,0xD3
"I2C","stop",17.5181999,0.00000005,,,,
"I2C","start",17.518254,0.00000005,,,,
"I2C","address",17.51826605,0.00008505,true,0x3A,false,
"I2C","data",17.5183562,0.0000851,true,,,0x18
"I2C","data",17.5184464,0.0000851,true,,,0x3E
"I2C","data",17.5185366,0.0000851,true,,,0xF9
"I2C","data",17.5186268,0.00008505,true,,,0x6A
"I2C","data",17.518717,0.00008505,true,,,0x43
"I2C","data",17.5188072,0.00008505,true,,,0xAA
"I2C","data",17.5188974,0.00008505,true,,,0x9C
"I2C","data",17.51898755,0.0000851,true,,,0x35
"I2C","data",17.51907775,0.0000851,true,,,0x74
"I2C","stop",17.51917545,0.00000005,,,,
"I2C","start",17.5192123,0.00000005,,,,
"I2C","address",17.5192243,0.0000851,true,0x3A,false,
"I2C","data",17.5193145,0.00008505,true,,,0x10
"I2C","data",17.5194047,0.00008505,true,,,0xF9
"I2C","data",17.5194949,0.00008505,true,,,0x0A
"I2C","data",17.51958505,0.0000851,true,,,0xC3
"I2C","data",17.51967525,0.0000851,true,,,0x69
"I2C","data",17.51976545,0.0000851,true,,,0x72
"I2C","stop",17.51986315,0.00000005,,,,
"I2C","start",17.51989985,0.00000005,,,,
"I2C","address",17.51991185,0.0000851,true,0x3A,false,
"I2C","data",17.52000205,0.0000851,true,,,0x15
"I2C","data",17.52009225,0.0000851,true,,,0x02
"I2C","stop",17.52018995,0.00000005,,,,
"I2C","start",17.6292884,0.00000005,,,,
"I2C","address",17.6293004,0.0000851,true,0x3A,false,
"I2C","data",17.6293906,0.0000851,true,,,0x08
"I2C","start",17.62949135,0.00000005,,,,
"I2C","address",17.62950085,0.00008505,true,0x3A,true,
"I2C","data",17.62959105,0.00008505,true,,,0x53
"I2C","data",17.6296812,0.0000851,false,,,0x3B
"I2C","stop",17.6297789,0.00000005,,,,
"I2C","start",18.2713129,0.00000005,,,,
"I2C","address",18.2713249,0.0000851,true,0x3A,false,
"I2C","data",18.2714151,0.0000851,true,,,0x0A
"I2C","start",18.27151585,0.00000005,,,,
"I2C","address",18.27152535,0.0000851,true,0x3A,true,
"I2C","data",18.27161555,0.0000851,false,,,0x40
"I2C","stop",18.27171325,0.00000005,,,,
"I2C","start",18.538175,0.00000005,,,,
"I2C","address",18.538187,0.0000851,true,0x3A,false,
"I2C","data",18.5382772,0.0000851,true,,,0x0A
"I2C","start",18.53837795,0.00000005,,,,
"I2C","address",18.5383875,0.0000851,true,0x3A,true,
"I2C","data",18.5384777,0.0000851,false,,,0xE6
"I2C","stop",18.5385754,0.00000005,,,,
"I2C","start",18.8050719,0.00000005,,,,
"I2C","address",18.8050839,0.0000851,true,0x3A,false,
"I2C","data",18.8051741,0.0000851,true,,,0x0A
"I2C","start",18.80527485,0.00000005,,,,
"I2C","address",18.80528435,0.0000851,true,0x3A,true,
"I2C","data",18.8053746,0.0000851,false,,,0x9F
"I2C","stop",18.80547225,0.00000005,,,,
"I2C","start",19.07195105,0.00000005,,,,
"I2C","address",19.0719631,0.0000851,true,0x3A,false,
"I2C","data",19.0720533,0.0000851,true,,,0x0A
"I2C","start",19.07215405,0.00000005,,,,
"I2C","address",19.0721636,0.0000851,true,0x3A,true,
"I2C","data",19.0722538,0.0000851,false,,,0x40
"I2C","stop",19.0723515,0.00000005,,,,
"I2C","start",19.33883195,0.00000005,,,,
"I2C","address",19.338844,0.0000851,true,0x3A,false,
"I2C","data",19.3389342,0.0000851,true,,,0x0A
"I2C","start",19.33903495,0.00000005,,,,
"I2C","address",19.3390445,0.0000851,true,0x3A,true,
"I2C","data",19.3391347,0.0000851,false,,,0xE2
"I2C","stop",19.3392324,0.00000005,,,,
"I2C","start",19.605719,0.00000005,,,,
"I2C","address",19.605731,0.00008515,true,0x3A,false,
"I2C","data",19.60582125,0.0000851,true,,,0x0A
"I2C","start",19.605922,0.00000005,,,,
"I2C","address",19.6059315,0.0000851,true,0x3A,true,
"I2C","data",19.60602175,0.0000851,false,,,0xD5
"I2C","stop",19.6061194,0.00000005,,,,
"I2C","start",19.8725983,0.00000005,,,,
"I2C","address",19.87261035,0.0000851,true,0x3A,false,
"I2C","data",19.87270055,0.00008515,true,,,0x0A
"I2C","start",19.87280135,0.00000005,,,,
"I2C","address",19.87281085,0.0000851,true,0x3A,true,
"I2C","data",19.87290105,0.00008515,false,,,0x9A
"I2C","stop",19.87299875,0.00000005,,,,
"I2C","start",20.13905155,0.00000005,,,,
"I2C","address",20.1390636,0.0000851,true,0x3A,false,
"I2C","data",20.1391538,0.00008515,true,,,0x08
"I2C","start",20.13925455,0.00000005,,,,
"I2C","address",20.1392641,0.0000851,true,0x3A,true,
"I2C","data",20.1393543,0.0000851,true,,,0x55
"I2C","data",20.13944455,0.0000851,false,,,0xD1
"I2C","stop",20.13954225,0.00000005,,,,
"I2C","start",20.13958365,0.00000005,,,,
"I2C","address",20.1395957,0.0000851,true,0x3A,false,
"I2C","data",20.1396859,0.00008515,true,,,0x0A
"I2C","start",20.13978665,0.00000005,,,,
"I2C","address",20.1397962,0.0000851,true,0x3A,true,
"I2C","data",20.1398864,0.00008515,false,,,0x55
"I2C","stop",20.13998415,0.00000005,,,,
"I2C","start",20.4063736,0.00000005,,,,
"I2C","address",20.4063856,0.0000851,true,0x3A,false,
"I2C","data",20.40647585,0.0000851,true,,,0x0A
"I2C","start",20.4065766,0.00000005,,,,
"I2C","address",20.4065861,0.00008515,true,0x3A,true,
"I2C","data",20.40667635,0.0000851,false,,,0x84
"I2C","stop",20.40677405,0.00000005,,,,
"I2C","start",20.67324605,0.00000005,,,,
"I2C","address",20.6732581,0.0000851,true,0x3A,false,
"I2C","data",20.67334835,0.0000851,true,,,0x0A
"I2C","start",20.6734491,0.00000005,,,,
"I2C","address",20.6734586,0.0000851,true,0x3A,true,
"I2C","data",20.67354885,0.0000851,false,,,0x95
"I2C","stop",20.67364655,0.00000005,,,,
"I2C","start",20.94014145,0.00000005,,,,
"I2C","address",20.9401535,0.00008515,true,0x3A,false,
"I2C","data",20.94024375,0.0000851,true,,,0x0A
"I2C","start",20.9403445,0.00000005,,,,
"I2C","address",20.940354,0.00008515,true,0x3A,true,
"I2C","data",20.94044425,0.00008515,false,,,0xE4
"I2C","stop",20.940542,0.00000005,,,,
"I2C","start",21.20701985,0.00000005,,,,
"I2C","address",21.2070319,0.0000851,true,0x3A,false,
"I2C","data",21.20712215,0.0000851,true,,,0x0A
"I2C","start",21.2072229,0.00000005,,,,
"I2C","address",21.2072324,0.00008515,true,0x3A,true,
"I2C","data",21.20732265,0.0000851,false,,,0x69
"I2C","stop",21.20742035,0.00000005,,,,
"I2C","start",21.47390305,0.00000005,,,,
"I2C","address",21.4739151,0.0000851,true,0x3A,false,
"I2C","data",21.47400535,0.0000851,true,,,0x0A
"I2C","start",21.4741061,0.00000005,,,,
"I2C","address",21.4741156,0.00008515,true,0x3A,true,
"I2C","data",21.47420585,0.00008515,false,,,0xD1
"I2C","stop",21.4743036,0.00000005,,,,
"I2C","start",21.7407833,0.00000005,,,,
"I2C","address",21.74079535,0.0000851,true,0x3A,false,
"I2C","data",21.7408856,0.0000851,true,,,0x0A
"I2C","start",21.74098635,0.00000005,,,,
"I2C","address",21.74099585,0.00008515,true,0x3A,true,
"I2C","data",21.7410861,0.0000851,false,,,0x84
"I2C","stop",21.7411838,0.00000005,,,,
"I2C","start",22.0076759,0.00000005,,,,
"I2C","address",22.0076879,0.00008515,true,0x3A,false,
"I2C","data",22.00777815,0.00008515,true,,,0x0A
"I2C","start",22.00787895,0.00000005,,,,
"I2C","address",22.00788845,0.00008515,true,0x3A,true,
"I2C","data",22.0079787,0.00008515,false,,,0xD3
"I2C","stop",22.00807645,0.00000005,,,,
"I2C","start",22.274118,0.00000005,,,,
"I2C","address",22.27413005,0.0000851,true,0x3A,false,
"I2C","data",22.27422025,0.00008515,true,,,0x08
"I2C","start",22.27432105,0.00000005,,,,
"I2C","address",22.27433055,0.00008515,true,0x3A,true,
"I2C","data",22.2744208,0.00008515,true,,,0x58
"I2C","data",22.27451105,0.00008515,false,,,0xB5
"I2C","stop",22.2746088,0.00000005,,,,
"I2C","start",22.27465145,0.00000005,,,,
"I2C","address",22.2746635,0.00008515,true,0x3A,false,
"I2C","data",22.27475375,0.00008515,true,,,0x0A
"I2C","start",22.27485455,0.00000005,,,,
"I2C","address",22.27486405,0.00008515,true,0x3A,true,
"I2C","data",22.2749543,0.00008515,false,,,0x58
"I2C","stop",22.27505205,0.00000005,,,,
"I2C","start",22.54142575,0.00000005,,,,
"I2C","address",22.54143775,0.00008515,true,0x3A,false,
"I2C","data",22.54152805,0.0000851,true,,,0x0A
"I2C","start",22.5416288,0.00000005,,,,
"I2C","address",22.5416383,0.00008515,true,0x3A,true,
"I2C","data",22.54172855,0.00008515,false,,,0xCF
"I2C","stop",22.5418263,0.00000005,,,,
"I2C","start",22.80831715,0.00000005,,,,
"I2C","address",22.80832915,0.00008515,true,0x3A,false,
"I2C","data",22.80841945,0.0000851,true,,,0x0A
"I2C","start",22.8085202,0.00000005,,,,
"I2C","address",22.80852975,0.00008515,true,0x3A,true,
"I2C","data",22.80862,0.00008515,false,,,0x42
"I2C","stop",22.80871775,0.00000005,,,,
"I2C","start",23.07520105,0.00000005,,,,
"I2C","address",23.0752131,0.0000851,true,0x3A,false,
"I2C","data",23.07530335,0.0000851,true,,,0x0A
"I2C","start",23.0754041,0.00000005,,,,
"I2C","address",23.0754136,0.00008515,true,0x3A,true,
"I2C","data",23.0755039,0.0000851,false,,,0x76
"I2C","stop",23.0756016,0.00000005,,,,
"I2C","start",23.34208055,0.00000005,,,,
"I2C","address",23.34209255,0.00008515,true,0x3A,false,
"I2C","data",23.3421828,0.00008515,true,,,0x0A
"I2C","start",23.3422836,0.00000005,,,,
"I2C","address",23.34229315,0.0000851,true,0x3A,true,
"I2C","data",23.3423834,0.0000851,false,,,0x5F
"I2C","stop",23.3424811,0.00000005,,,,
"I2C","start",23.60896085,0.00000005,,,,
"I2C","address",23.60897285,0.00008515,true,0x3A,false,
"I2C","data",23.6090631,0.00008515,true,,,0x0A
"I2C","start",23.6091639,0.00000005,,,,
"I2C","address",23.6091734,0.00008515,true,0x3A,true,
"I2C","data",23.60926365,0.00008515,false,,,0x21
"I2C","stop",23.6093614,0.00000005,,,,
"I2C","start",23.8758508,0.00000005,,,,
"I2C","address",23.87586285,0.00008515,true,0x3A,false,
"I2C","data",23.8759531,0.00008515,true,,,0x0A
"I2C","start",23.8760539,0.00000005,,,,
"I2C","address",23.8760634,0.00008515,true,0x3A,true,
"I2C","data",23.8761537,0.00008515,false,,,0xCD
"I2C","stop",23.8762514,0.00000005,,,,
"I2C","start",24.14273055,0.00000005,,,,
"I2C","address",24.1427426,0.00008515,true,0x3A,false,
"I2C","data",24.14283285,0.00008515,true,,,0x0A
"I2C","start",24.14293365,0.00000005,,,,
"I2C","address",24.14294315,0.00008515,true,0x3A,true,
"I2C","data",24.14303345,0.0000851,false,,,0xAE
"I2C","stop",24.1431312,0.00000005,,,,
"I2C","start",24.409188,0.00000005,,,,
"I2C","address",24.40920005,0.00008515,true,0x3A,false,
"I2C","data",24.4092903,0.00008515,true,,,0x08
"I2C","start",24.4093911,0.00000005,,,,
"I2C","address",24.4094006,0.00008515,true,0x3A,true,
"I2C","data",24.40949085,0.00008515,true,,,0xA3
"I2C","data",24.4095811,0.00008515,false,,,0x83
"I2C","stop",24.40967885,0.00000005,,,,
"I2C","start",24.40972735,0.00000005,,,,
"I2C","address",24.4097394,0.00008515,true,0x3A,false,
"I2C","data",24.40982965,0.00008515,true,,,0x0A
"I2C","start",24.40993045,0.00000005,,,,
"I2C","address",24.40993995,0.00008515,true,0x3A,true,
"I2C","data",24.4100302,0.00008515,false,,,0xA3
"I2C","stop",24.41012795,0.00000005,,,,
"I2C","start",24.6764991,0.00000005,,,,
"I2C","address",24.6765111,0.00008515,true,0x3A,false,
"I2C","data",24.67660135,0.00008515,true,,,0x0A
"I2C","start",24.67670215,0.00000005,,,,
"I2C","address",24.67671165,0.00008515,true,0x3A,true,
"I2C","data",24.6768019,0.00008515,false,,,0xEE
"I2C","stop",24.67689965,0.00000005,,,,
"I2C","start",24.9433879,0.00000005,,,,
"I2C","address",24.94339995,0.00008515,true,0x3A,false,
"I2C","data",24.9434902,0.00008515,true,,,0x0A
"I2C","start",24.943591,0.00000005,,,,
"I2C","address",24.9436005,0.00008515,true,0x3A,true,
"I2C","data",24.94369075,0.00008515,false,,,0xBA
"I2C","stop",24.9437885,0.00000005,,,,
"I2C","start",25.21026805,0.00000005,,,,
"I2C","address",25.21028005,0.00008515,true,0x3A,false,
"I2C","data",25.2103703,0.00008515,true,,,0x0A
"I2C","start",25.2104711,0.00000005,,,,
"I2C","address",25.2104806,0.00008515,true,0x3A,true,
"I2C","data",25.2105709,0.0000851,false,,,0x0F
"I2C","stop",25.2106686,0.00000005,,,,
"I2C","start",25.477148,0.00000005,,,,
"I2C","address",25.47716005,0.0000851,true,0x3A,false,
"I2C","data",25.4772503,0.0000851,true,,,0x0A
"I2C","start",25.47735105,0.00000005,,,,
"I2C","address",25.4773606,0.0000851,true,0x3A,true,
"I2C","data",25.47745085,0.00008515,false,,,0x42
"I2C","stop",25.4775486,0.00000005,,,,
"I2C","start",25.7440297,0.00000005,,,,
"I2C","address",25.74404175,0.00008515,true,0x3A,false,
"I2C","data",25.744132,0.00008515,true,,,0x0A
"I2C","start",25.7442328,0.00000005,,,,
"I2C","address",25.74424235,0.00008515,true,0x3A,true,
"I2C","data",25.7443326,0.00008515,false,,,0xED
"I2C","stop",25.74443035,0.00000005,,,,
"I2C","start",26.0109282,0.00000005,,,,
"I2C","address",26.01094025,0.00008515,true,0x3A,false,
"I2C","data",26.0110305,0.00008515,true,,,0x0A
"I2C","start",26.0111313,0.00000005,,,,
"I2C","address",26.0111408,0.00008515,true,0x3A,true,
"I2C","data",26.0112311,0.00008515,false,,,0xB2
"I2C","stop",26.01132885,0.00000005,,,,
"I2C","start",26.2777978,0.00000005,,,,
"I2C","address",26.27780985,0.00008515,true,0x3A,false,
"I2C","data",26.2779001,0.00008515,true,,,0x0A
"I2C","start",26.27800095,0.00000005,,,,
"I2C","address",26.27801045,0.00008515,true,0x3A,true,
"I2C","data",26.2781007,0.00008515,false,,,0x0A
"I2C","stop",26.27819845,0.00000005,,,,
"I2C","start",26.5442534,0.00000005,,,,
"I2C","address",26.54426545,0.00008515,true,0x3A,false,
"I2C","data",26.5443557,0.00008515,true,,,0x08
"I2C","start",26.5444565,0.00000005,,,,
"I2C","address",26.544466,0.0000852,true,0x3A,true,
"I2C","data",26.5445563,0.00008515,true,,,0x04
"I2C","data",26.54464655,0.00008515,false,,,0xA7
"I2C","stop",26.5447443,0.00000005,,,,
"I2C","start",26.54479295,0.00000005,,,,
"I2C","address",26.544805,0.00008515,true,0x3A,false,
"I2C","data",26.54489525,0.00008515,true,,,0x0A
"I2C","start",26.54499605,0.00000005,,,,
"I2C","address",26.54500555,0.0000852,true,0x3A,true,
"I2C","data",26.54509585,0.00008515,false,,,0x04
"I2C","stop",26.5451936,0.00000005,,,,
"I2C","start",26.8115724,0.00000005,,,,
"I2C","address",26.81158445,0.00008515,true,0x3A,false,
"I2C","data",26.8116747,0.00008515,true,,,0x0A
"I2C","start",26.8117755,0.00000005,,,,
"I2C","address",26.81178505,0.00008515,true,0x3A,true,
"I2C","data",26.8118753,0.00008515,false,,,0x0F
"I2C","stop",26.81197305,0.00000005,,,,
"I2C","start",27.0784589,0.00000005,,,,
"I2C","address",27.0784709,0.00008515,true,0x3A,false,
"I2C","data",27.0785612,0.0000851,true,,,0x0A
"I2C","start",27.078662,0.00000005,,,,
"I2C","address",27.0786715,0.00008515,true,0x3A,true,
"I2C","data",27.07876175,0.00008515,false,,,0x72
"I2C","stop",27.0788595,0.00000005,,,,
"I2C","start",27.3453442,0.00000005,,,,
"I2C","address",27.3453562,0.0000852,true,0x3A,false,
"I2C","data",27.3454465,0.00008515,true,,,0x0A
"I2C","start",27.3455473,0.00000005,,,,
"I2C","address",27.3455568,0.0000852,true,0x3A,true,
"I2C","data",27.3456471,0.00008515,false,,,0x64
"I2C","stop",27.34574485,0.00000005,,,,
"I2C","start",27.6122174,0.00000005,,,,
"I2C","address",27.6122294,0.00008515,true,0x3A,false,
"I2C","data",27.61231965,0.00008515,true,,,0x0A
"I2C","start",27.61242045,0.00000005,,,,
"I2C","address",27.61242995,0.0000852,true,0x3A,true,
"I2C","data",27.61252025,0.00008515,false,,,0xE3
"I2C","stop",27.612618,0.00000005,,,,
"I2C","start",27.8790966,0.00000005,,,,
"I2C","address",27.87910865,0.00008515,true,0x3A,false,
"I2C","data",27.8791989,0.00008515,true,,,0x0A
"I2C","start",27.8792997,0.00000005,,,,
"I2C","address",27.87930925,0.00008515,true,0x3A,true,
"I2C","data",27.8793995,0.00008515,false,,,0x11
"I2C","stop",27.87949725,0.00000005,,,,
"I2C","start",28.1459966,0.00000005,,,,
"I2C","address",28.14600865,0.00008515,true,0x3A,false,
"I2C","data",28.1460989,0.00008515,true,,,0x0A
"I2C","start",28.1461997,0.00000005,,,,
"I2C","address",28.1462092,0.00008515,true,0x3A,true,
"I2C","data",28.1462995,0.0000851,false,,,0xDE
"I2C","stop",28.1463972,0.00000005,,,,
"I2C","start",28.41287545,0.00000005,,,,
"I2C","address",28.4128875,0.00008515,true,0x3A,false,
"I2C","data",28.41297775,0.00008515,true,,,0x0A
"I2C","start",28.41307855,0.00000005,,,,
"I2C","address",28.4130881,0.00008515,true,0x3A,true,
"I2C","data",28.41317835,0.00008515,false,,,0x13
"I2C","stop",28.4132761,0.00000005,,,,
"I2C","start",28.67931845,0.00000005,,,,
"I2C","address",28.6793305,0.00008515,true,0x3A,false,
"I2C","data",28.67942075,0.00008515,true,,,0x08
"I2C","start",28.67952155,0.00000005,,,,
"I2C","address",28.6795311,0.00008515,true,0x3A,true,
"I2C","data",28.67962135,0.00008515,true,,,0xF8
"I2C","data",28.6797116,0.00008515,false,,,0xBA
"I2C","stop",28.67980935,0.00000005,,,,
"I2C","start",28.67985075,0.00000005,,,,
"I2C","address",28.67986275,0.00008515,true,0x3A,false,
"I2C","data",28.67995305,0.0000851,true,,,0x0A
"I2C","start",28.68005385,0.00000005,,,,
"I2C","address",28.68006335,0.00008515,true,0x3A,true,
"I2C","data",28.6801536,0.00008515,false,,,0xF8
"I2C","stop",28.68025135,0.00000005,,,,
"I2C","start",28.94664445,0.00000005,,,,
"I2C","address",28.9466565,0.00008515,true,0x3A,false,
"I2C","data",28.94674675,0.00008515,true,,,0x0A
"I2C","start",28.94684755,0.00000005,,,,
"I2C","address",28.94685705,0.0000852,true,0x3A,true,
"I2C","data",28.94694735,0.00008515,false,,,0x46
"I2C","stop",28.9470451,0.00000005,,,,
"I2C","start",29.21352585,0.00000005,,,,
"I2C","address",29.2135379,0.00008515,true,0x3A,false,
"I2C","data",29.2136282,0.00008515,true,,,0x0A
"I2C","start",29.213729,0.00000005,,,,
"I2C","address",29.2137385,0.00008515,true,0x3A,true,
"I2C","data",29.2138288,0.00008515,false,,,0xE6
"I2C","stop",29.21392655,0.00000005,,,,
"I2C","start",29.48040345,0.00000005,,,,
"I2C","address",29.4804155,0.00008515,true,0x3A,false,
"I2C","data",29.48050575,0.00008515,true,,,0x0A
"I2C","start",29.48060655,0.00000005,,,,
"I2C","address",29.48061605,0.0000852,true,0x3A,true,
"I2C","data",29.48070635,0.00008515,false,,,0xDE
"I2C","stop",29.4808041,0.00000005,,,,
"I2C","start",29.7472946,0.00000005,,,,
"I2C","address",29.74730665,0.0000852,true,0x3A,false,
"I2C","data",29.74739695,0.00008515,true,,,0x0A
"I2C","start",29.74749775,0.00000005,,,,
"I2C","address",29.74750725,0.0000852,true,0x3A,true,
"I2C","data",29.74759755,0.00008515,false,,,0x6D
"I2C","stop",29.7476953,0.00000005,,,,
"I2C","start",30.0141814,0.00000005,,,,
"I2C","address",30.01419345,0.00008515,true,0x3A,false,
"I2C","data",30.0142837,0.00008515,true,,,0x0A
"I2C","start",30.0143845,0.00000005,,,,
"I2C","address",30.01439405,0.00008515,true,0x3A,true,
"I2C","data",30.0144843,0.0000852,false,,,0x4B
"I2C","stop",30.0145821,0.00000005,,,,
"I2C","start",30.28105515,0.00000005,,,,
"I2C","address",30.2810672,0.00008515,true,0x3A,false,
"I2C","data",30.28115745,0.00008515,true,,,0x0A
"I2C","start",30.2812583,0.00000005,,,,
"I2C","address",30.2812678,0.00008515,true,0x3A,true,
"I2C","data",30.2813581,0.00008515,false,,,0x98
"I2C","stop",30.28145585,0.00000005,,,,
"I2C","start",30.54793595,0.00000005,,,,
"I2C","address",30.547948,0.00008515,true,0x3A,false,
"I2C","data",30.54803825,0.00008515,true,,,0x0A
"I2C","start",30.54813905,0.00000005,,,,
"I2C","address",30.5481486,0.00008515,true,0x3A,true,
"I2C","data",30.54823885,0.00008515,false,,,0x99
"I2C","stop",30.5483366,0.00000005,,,,
"I2C","start",30.8143898,0.00000005,,,,
"I2C","address",30.81440185,0.00008515,true,0x3A,false,
"I2C","data",30.8144921,0.00008515,true,,,0x08
"I2C","start",30.81459295,0.00000005,,,,
"I2C","address",30.81460245,0.00008515,true,0x3A,true,
"I2C","data",30.81469275,0.00008515,true,,,0x20
"I2C","data",30.814783,0.00008515,false,,,0x5B
"I2C","stop",30.81488075,0.00000005,,,,
"I2C","start",30.81492935,0.00000005,,,,
"I2C","address",30.8149414,0.00008515,true,0x3A,false,
"I2C","data",30.8150317,0.00008515,true,,,0x0A
"I2C","start",30.8151325,0.00000005,,,,
"I2C","address",30.81514205,0.00008515,true,0x3A,true,
"I2C","data",30.8152323,0.00008515,false,,,0x20
"I2C","stop",30.81533005,0.00000005,,,,
"I2C","start",31.08171405,0.00000005,,,,
"I2C","address",31.0817261,0.00008515,true,0x3A,false,
"I2C","data",31.08181635,0.00008515,true,,,0x0A
"I2C","start",31.0819172,0.00000005,,,,
"I2C","address",31.0819267,0.00008515,true,0x3A,true,
"I2C","data",31.08201695,0.0000852,false,,,0x78
"I2C","stop",31.08211475,0.00000005,,,,
"I2C","start",31.34859315,0.00000005,,,,
"I2C","address",31.3486052,0.00008515,true,0x3A,false,
"I2C","data",31.3486955,0.00008515,true,,,0x0A
"I2C","start",31.3487963,0.00000005,,,,
"I2C","address",31.3488058,0.0000852,true,0x3A,true,
"I2C","data",31.3488961,0.00008515,false,,,0xFF
"I2C","stop",31.34899385,0.00000005,,,,
"I2C","start",31.6154748,0.00000005,,,,
"I2C","address",31.61548685,0.00008515,true,0x3A,false,
"I2C","data",31.61557715,0.00008515,true,,,0x0A
"I2C","start",31.61567795,0.00000005,,,,
"I2C","address",31.61568745,0.0000852,true,0x3A,true,
"I2C","data",31.61577775,0.00008515,false,,,0xEB
"I2C","stop",31.6158755,0.00000005,,,,
"I2C","start",31.8823651,0.00000005,,,,
"I2C","address",31.8823771,0.0000852,true,0x3A,false,
"I2C","data",31.8824674,0.00008515,true,,,0x0A
"I2C","start",31.8825682,0.00000005,,,,
"I2C","address",31.88257775,0.00008515,true,0x3A,true,
"I2C","data",31.882668,0.00008515,false,,,0xAF
"I2C","stop",31.88276575,0.00000005,,,,
"I2C","start",32.1492352,0.00000005,,,,
"I2C","address",32.14924725,0.00008515,true,0x3A,false,
"I2C","data",32.1493375,0.00008515,true,,,0x0A
"I2C","start",32.14943835,0.00000005,,,,
"I2C","address",32.14944785,0.00008515,true,0x3A,true,
"I2C","data",32.1495381,0.0000852,false,,,0x84
"I2C","stop",32.1496359,0.00000005,,,,
"I2C","start",32.4161193,0.00000005,,,,
"I2C","address",32.4161313,0.0000852,true,0x3A,false,
"I2C","data",32.4162216,0.00008515,true,,,0x0A
"I2C","start",32.41632245,0.00000005,,,,
"I2C","address",32.41633195,0.00008515,true,0x3A,true,
"I2C","data",32.41642225,0.00008515,false,,,0x3B
"I2C","stop",32.41652,0.00000005,,,,
"I2C","start",32.68301445,0.00000005,,,,
"I2C","address",32.6830265,0.0000852,true,0x3A,false,
"I2C","data",32.6831168,0.00008515,true,,,0x0A
"I2C","start",32.6832176,0.00000005,,,,
"I2C","address",32.68322715,0.00008515,true,0x3A,true,
"I2C","data",32.6833174,0.0000852,false,,,0xED
"I2C","stop",32.6834152,0.00000005,,,,
"I2C","start",32.9494595,0.00000005,,,,
"I2C","address",32.94947155,0.00008515,true,0x3A,false,
"I2C","data",32.94956185,0.00008515,true,,,0x08
"I2C","start",32.94966265,0.00000005,,,,
"I2C","address",32.94967215,0.0000852,true,0x3A,true,
"I2C","data",32.94976245,0.00008515,true,,,0x8C
"I2C","data",32.94985275,0.00008515,false,,,0x3E
"I2C","stop",32.9499505,0.00000005,,,,
"I2C","start",32.94999185,0.00000005,,,,
"I2C","address",32.95000385,0.00008515,true,0x3A,false,
"I2C","data",32.95009415,0.00008515,true,,,0x0A
"I2C","start",32.95019495,0.00000005,,,,
"I2C","address",32.95020445,0.0000852,true,0x3A,true,
"I2C","data",32.95029475,0.0000852,false,,,0x8C
"I2C","stop",32.95039255,0.00000005,,,,
"I2C","start",33.21677435,0.00000005,,,,
"I2C","address",33.2167864,0.00008515,true,0x3A,false,
"I2C","data",33.2168767,0.00008515,true,,,0x0A
"I2C","start",33.2169775,0.00000005,,,,
"I2C","address",33.216987,0.0000852,true,0x3A,true,
"I2C","data",33.2170773,0.0000852,false,,,0x13
"I2C","stop",33.21717505,0.00000005,,,,
"I2C","start",33.4836575,0.00000005,,,,
"I2C","address",33.48366955,0.00008515,true,0x3A,false,
"I2C","data",33.48375985,0.00008515,true,,,0x0A
"I2C","start",33.48386065,0.00000005,,,,
"I2C","address",33.48387015,0.0000852,true,0x3A,true,
"I2C","data",33.48396045,0.00008515,false,,,0x12
"I2C","stop",33.4840582,0.00000005,,,,
"I2C","start",33.7505363,0.00000005,,,,
"I2C","address",33.75054835,0.00008515,true,0x3A,false,
"I2C","data",33.75063865,0.00008515,true,,,0x0A
"I2C","start",33.75073945,0.00000005,,,,
"I2C","address",33.75074895,0.0000852,true,0x3A,true,
"I2C","data",33.75083925,0.0000852,false,,,0x1D
"I2C","stop",33.75093705,0.00000005,,,,
"I2C","start",34.0174242,0.00000005,,,,
"I2C","address",34.01743625,0.00008515,true,0x3A,false,
"I2C","data",34.01752655,0.00008515,true,,,0x0A
"I2C","start",34.01762735,0.00000005,,,,
"I2C","address",34.0176369,0.00008515,true,0x3A,true,
"I2C","data",34.01772715,0.0000852,false,,,0x59
"I2C","stop",34.01782495,0.00000005,,,,
"I2C","start",34.2843102,0.00000005,,,,
"I2C","address",34.28432225,0.00008515,true,0x3A,false,
"I2C","data",34.28441255,0.00008515,true,,,0x0A
"I2C","start",34.28451335,0.00000005,,,,
"I2C","address",34.2845229,0.00008515,true,0x3A,true,
"I2C","data",34.2846132,0.00008515,false,,,0x3E
"I2C","stop",34.28471095,0.00000005,,,,
"I2C","start",34.5511956,0.00000005,,,,
"I2C","address",34.5512076,0.0000852,true,0x3A,false,
"I2C","data",34.5512979,0.0000852,true,,,0x0A
"I2C","start",34.55139875,0.00000005,,,,
"I2C","address",34.5514083,0.00008515,true,0x3A,true,
"I2C","data",34.5514986,0.00008515,false,,,0xE0
"I2C","stop",34.55159635,0.00000005,,,,
"I2C","start",34.81808065,0.00000005,,,,
"I2C","address",34.8180927,0.00008515,true,0x3A,false,
"I2C","data",34.81818295,0.0000852,true,,,0x0A
"I2C","start",34.8182838,0.00000005,,,,
"I2C","address",34.8182933,0.0000852,true,0x3A,true,
"I2C","data",34.8183836,0.0000852,false,,,0x96
"I2C","stop",34.8184814,0.00000005,,,,
"I2C","start",35.08453715,0.00000005,,,,
"I2C","address",35.08454915,0.0000852,true,0x3A,false,
"I2C","data",35.08463945,0.00008515,true,,,0x08
"I2C","start",35.0847403,0.00000005,,,,
"I2C","address",35.0847498,0.0000852,true,0x3A,true,
"I2C","data",35.0848401,0.00008515,true,,,0x43
"I2C","data",35.0849304,0.00008515,false,,,0x0F
"I2C","stop",35.08502815,0.00000005,,,,
"I2C","start",35.0850695,0.00000005,,,,
"I2C","address",35.08508155,0.0000852,true,0x3A,false,
"I2C","data",35.08517185,0.00008515,true,,,0x0A
"I2C","start",35.08527265,0.00000005,,,,
"I2C","address",35.0852822,0.00008515,true,0x3A,true,
"I2C","data",35.08537245,0.0000852,false,,,0x43
"I2C","stop",35.08547025,0.00000005,,,,
"I2C","start",35.35185235,0.00000005,,,,
"I2C","address",35.3518644,0.0000852,true,0x3A,false,
"I2C","data",35.3519547,0.0000852,true,,,0x0A
"I2C","start",35.35205555,0.00000005,,,,
"I2C","address",35.35206505,0.0000852,true,0x3A,true,
"I2C","data",35.35215535,0.0000852,false,,,0x1B
"I2C","stop",35.35225315,0.00000005,,,,
"I2C","start",35.61871995,0.00000005,,,,
"I2C","address",35.618732,0.00008515,true,0x3A,false,
"I2C","data",35.6188223,0.00008515,true,,,0x0A
"I2C","start",35.6189231,0.00000005,,,,
"I2C","address",35.61893265,0.00008515,true,0x3A,true,
"I2C","data",35.61902295,0.00008515,false,,,0x18
"I2C","stop",35.6191207,0.00000005,,,,
"I2C","start",35.8856096,0.00000005,,,,
"I2C","address",35.88562165,0.0000852,true,0x3A,false,
"I2C","data",35.88571195,0.0000852,true,,,0x0A
"I2C","start",35.8858128,0.00000005,,,,
"I2C","address",35.8858223,0.0000852,true,0x3A,true,
"I2C","data",35.88591265,0.00008515,false,,,0x1D
"I2C","stop",35.8860104,0.00000005,,,,
"I2C","start",36.15248905,0.00000005,,,,
"I2C","address",36.15250105,0.0000852,true,0x3A,false,
"I2C","data",36.15259135,0.0000852,true,,,0x0A
"I2C","start",36.1526922,0.00000005,,,,
"I2C","address",36.1527017,0.0000852,true,0x3A,true,
"I2C","data",36.152792,0.0000852,false,,,0xD8
"I2C","stop",36.1528898,0.00000005,,,,
"I2C","start",36.4193838,0.00000005,,,,
"I2C","address",36.41939585,0.0000852,true,0x3A,false,
"I2C","data",36.41948615,0.0000852,true,,,0x0A
"I2C","start",36.419587,0.00000005,,,,
"I2C","address",36.4195965,0.0000852,true,0x3A,true,
"I2C","data",36.4196868,0.0000852,false,,,0x80
"I2C","stop",36.4197846,0.00000005,,,,
"I2C","start",36.6862654,0.00000005,,,,
"I2C","address",36.68627745,0.0000852,true,0x3A,false,
"I2C","data",36.68636775,0.00008515,true,,,0x0A
"I2C","start",36.6864686,0.00000005,,,,
"I2C","address",36.6864781,0.0000852,true,0x3A,true,
"I2C","data",36.6865684,0.0000852,false,,,0xB5
"I2C","stop",36.6866662,0.00000005,,,,
"I2C","start",36.9531505,0.00000005,,,,
"I2C","address",36.95316255,0.00008515,true,0x3A,false,
"I2C","data",36.95325285,0.00008515,true,,,0x0A
"I2C","start",36.9533537,0.00000005,,,,
"I2C","address",36.9533632,0.0000852,true,0x3A,true,
"I2C","data",36.9534535,0.0000852,false,,,0x00
"I2C","stop",36.9535513,0.00000005,,,,
"I2C","start",37.2196029,0.00000005,,,,
"I2C","address",37.21961495,0.00008515,true,0x3A,false,
"I2C","data",37.21970525,0.00008515,true,,,0x08
"I2C","start",37.21980605,0.00000005,,,,
"I2C","address",37.2198156,0.00008515,true,0x3A,true,
"I2C","data",37.2199059,0.00008515,true,,,0x13
"I2C","data",37.21999615,0.0000852,false,,,0x2F
"I2C","stop",37.22009395,0.00000005,,,,
"I2C","start",37.2201354,0.00000005,,,,
"I2C","address",37.22014745,0.00008515,true,0x3A,false,
"I2C","data",37.22023775,0.00008515,true,,,0x0A
"I2C","start",37.22033855,0.00000005,,,,
"I2C","address",37.2203481,0.0000852,true,0x3A,true,
"I2C","data",37.2204384,0.0000852,false,,,0x13
"I2C","stop",37.2205362,0.00000005,,,,
"I2C","start",37.48691215,0.00000005,,,,
"I2C","address",37.48692415,0.0000852,true,0x3A,false,
"I2C","data",37.48701445,0.0000852,true,,,0x0A
"I2C","start",37.4871153,0.00000005,,,,
"I2C","address",37.48712485,0.00008515,true,0x3A,true,
"I2C","data",37.48721515,0.00008515,false,,,0x0E
"I2C","stop",37.4873129,0.00000005,,,,
"I2C","start",37.7537923,0.00000005,,,,
"I2C","address",37.75380435,0.00008515,true,0x3A,false,
"I2C","data",37.75389465,0.00008515,true,,,0x0A
"I2C","start",37.75399545,0.00000005,,,,
"I2C","address",37.754005,0.00008515,true,0x3A,true,
"I2C","data",37.75409525,0.0000852,false,,,0x73
"I2C","stop",37.75419305,0.00000005,,,,
"I2C","start",38.02068465,0.00000005,,,,
"I2C","address",38.0206967,0.0000852,true,0x3A,false,
"I2C","data",38.020787,0.0000852,true,,,0x0A
"I2C","start",38.02088785,0.00000005,,,,
"I2C","address",38.02089735,0.0000852,true,0x3A,true,
"I2C","data",38.02098765,0.0000852,false,,,0x2C
"I2C","stop",38.02108545,0.00000005,,,,
"I2C","start",38.2875637,0.00000005,,,,
"I2C","address",38.28757575,0.0000852,true,0x3A,false,
"I2C","data",38.28766605,0.0000852,true,,,0x0A
"I2C","start",38.2877669,0.00000005,,,,
"I2C","address",38.2877764,0.0000852,true,0x3A,true,
"I2C","data",38.28786675,0.0000852,false,,,0xF0
"I2C","stop",38.28796455,0.00000005,,,,
"I2C","start",38.5544369,0.00000005,,,,
"I2C","address",38.5544489,0.0000852,true,0x3A,false,
"I2C","data",38.5545392,0.0000852,true,,,0x0A
"I2C","start",38.55464005,0.00000005,,,,
"I2C","address",38.5546496,0.00008515,true,0x3A,true,
"I2C","data",38.5547399,0.00008515,false,,,0xB6
"I2C","stop",38.55483765,0.00000005,,,,
"I2C","start",38.82133255,0.00000005,,,,
"I2C","address",38.8213446,0.0000852,true,0x3A,false,
"I2C","data",38.8214349,0.0000852,true,,,0x0A
"I2C","start",38.82153575,0.00000005,,,,
"I2C","address",38.82154525,0.0000852,true,0x3A,true,
"I2C","data",38.8216356,0.00008515,false,,,0x7E
"I2C","stop",38.82173335,0.00000005,,,,
"I2C","start",39.0882083,0.00000005,,,,
"I2C","address",39.08822035,0.00008515,true,0x3A,false,
"I2C","data",39.08831065,0.00008515,true,,,0x0A
"I2C","start",39.0884115,0.00000005,,,,
"I2C","address",39.088421,0.0000852,true,0x3A,true,
"I2C","data",39.0885113,0.0000852,false,,,0x66
"I2C","stop",39.0886091,0.00000005,,,,
"I2C","start",39.35465905,0.00000005,,,,
"I2C","address",39.35467105,0.0000852,true,0x3A,false,
"I2C","data",39.35476135,0.0000852,true,,,0x08
"I2C","start",39.3548622,0.00000005,,,,
"I2C","address",39.35487175,0.0000852,true,0x3A,true,
"I2C","data",39.35496205,0.0000852,true,,,0x53
"I2C","data",39.35505235,0.0000852,false,,,0x73
"I2C","stop",39.35515015,0.00000005,,,,
"I2C","start",39.3551916,0.00000005,,,,
"I2C","address",39.3552036,0.0000852,true,0x3A,false,
"I2C","data",39.3552939,0.0000852,true,,,0x0A
"I2C","start",39.35539475,0.00000005,,,,
"I2C","address",39.3554043,0.00008515,true,0x3A,true,
"I2C","data",39.3554946,0.00008515,false,,,0x53
"I2C","stop",39.35559235,0.00000005,,,,
"I2C","start",39.6219745,0.00000005,,,,
"I2C","address",39.6219865,0.0000852,true,0x3A,false,
"I2C","data",39.62207685,0.00008515,true,,,0x0A
"I2C","start",39.6221777,0.00000005,,,,
"I2C","address",39.6221872,0.0000852,true,0x3A,true,
"I2C","data",39.6222775,0.0000852,false,,,0xE2
"I2C","stop",39.6223753,0.00000005,,,,
"I2C","start",39.88885845,0.00000005,,,,
"I2C","address",39.88887045,0.0000852,true,0x3A,false,
"I2C","data",39.88896075,0.0000852,true,,,0x0A
"I2C","start",39.8890616,0.00000005,,,,
"I2C","address",39.88907115,0.0000852,true,0x3A,true,
"I2C","data",39.88916145,0.0000852,false,,,0x8E
"I2C","stop",39.88925925,0.00000005,,,,
"I2C","start",40.15575335,0.00000005,,,,
"I2C","address",40.1557654,0.0000852,true,0x3A,false,
"I2C","data",40.1558557,0.0000852,true,,,0x0A
"I2C","start",40.15595655,0.00000005,,,,
"I2C","address",40.1559661,0.00008515,true,0x3A,true,
"I2C","data",40.1560564,0.00008515,false,,,0x4B
"I2C","stop",40.15615415,0.00000005,,,,
"I2C","start",40.4226224,0.00000005,,,,
"I2C","address",40.42263445,0.00008515,true,0x3A,false,
"I2C","data",40.42272475,0.0000852,true,,,0x0A
"I2C","start",40.4228256,0.00000005,,,,
"I2C","address",40.42283515,0.00008515,true,0x3A,true,
"I2C","data",40.42292545,0.00008515,false,,,0x2B
"I2C","stop",40.4230232,0.00000005,,,,
"I2C","start",40.6895195,0.00000005,,,,
"I2C","address",40.6895315,0.0000852,true,0x3A,false,
"I2C","data",40.68962185,0.00008515,true,,,0x0A
"I2C","start",40.6897227,0.00000005,,,,
"I2C","address",40.6897322,0.0000852,true,0x3A,true,
"I2C","data",40.6898225,0.0000852,false,,,0x40
"I2C","stop",40.6899203,0.00000005,,,,
"I2C","start",40.9563968,0.00000005,,,,
"I2C","address",40.95640885,0.0000852,true,0x3A,false,
"I2C","data",40.95649915,0.0000852,true,,,0x0A
"I2C","start",40.9566,0.00000005,,,,
"I2C","address",40.9566095,0.0000852,true,0x3A,true,
"I2C","data",40.9566998,0.0000852,false,,,0xEE
"I2C","stop",40.9567976,0.00000005,,,,
"I2C","start",41.22328545,0.00000005,,,,
"I2C","address",41.2232975,0.0000852,true,0x3A,false,
"I2C","data",41.2233878,0.0000852,true,,,0x0A
"I2C","start",41.22348865,0.00000005,,,,
"I2C","address",41.22349815,0.0000852,true,0x3A,true,
"I2C","data",41.22358845,0.0000852,false,,,0xE3
"I2C","stop",41.22368625,0.00000005,,,,
"I2C","start",41.4897393,0.00000005,,,,
"I2C","address",41.48975135,0.00008515,true,0x3A,false,
"I2C","data",41.48984165,0.00008515,true,,,0x08
"I2C","start",41.4899425,0.00000005,,,,
"I2C","address",41.489952,0.0000852,true,0x3A,true,
"I2C","data",41.4900423,0.0000852,true,,,0x5A
"I2C","data",41.4901326,0.0000852,false,,,0xA5
"I2C","stop",41.4902304,0.00000005,,,,
"I2C","start",41.49027185,0.00000005,,,,
"I2C","address",41.4902839,0.0000852,true,0x3A,false,
"I2C","data",41.49037425,0.00008515,true,,,0x0A
"I2C","start",41.4904751,0.00000005,,,,
"I2C","address",41.4904846,0.0000852,true,0x3A,true,
"I2C","data",41.4905749,0.0000852,false,,,0x5A
"I2C","stop",41.49067275,0.00000005,,,,
"I2C","start",41.7570489,0.00000005,,,,
"I2C","address",41.75706095,0.00008515,true,0x3A,false,
"I2C","data",41.75715125,0.00008515,true,,,0x0A
"I2C","start",41.7572521,0.00000005,,,,
"I2C","address",41.7572616,0.0000852,true,0x3A,true,
"I2C","data",41.7573519,0.0000852,false,,,0x49
"I2C","stop",41.7574497,0.00000005,,,,
"I2C","start",42.0239243,0.00000005,,,,
"I2C","address",42.02393635,0.0000852,true,0x3A,false,
"I2C","data",42.02402665,0.0000852,true,,,0x0A
"I2C","start",42.0241275,0.00000005,,,,
"I2C","address",42.02413705,0.0000852,true,0x3A,true,
"I2C","data",42.02422735,0.00008515,false,,,0x8F
"I2C","stop",42.02432515,0.00000005,,,,
"I2C","start",42.29080755,0.00000005,,,,
"I2C","address",42.2908196,0.0000852,true,0x3A,false,
"I2C","data",42.2909099,0.0000852,true,,,0x0A
"I2C","start",42.29101075,0.00000005,,,,
"I2C","address",42.2910203,0.0000852,true,0x3A,true,
"I2C","data",42.2911106,0.0000852,false,,,0x06
"I2C","stop",42.2912084,0.00000005,,,,
"I2C","start",42.55770155,0.00000005,,,,
"I2C","address",42.5577136,0.00008515,true,0x3A,false,
"I2C","data",42.5578039,0.0000852,true,,,0x0A
"I2C","start",42.55790475,0.00000005,,,,
"I2C","address",42.55791425,0.0000852,true,0x3A,true,
"I2C","data",42.55800455,0.0000852,false,,,0x93
"I2C","stop",42.55810235,0.00000005,,,,
"I2C","start",42.82458535,0.00000005,,,,
"I2C","address",42.8245974,0.0000852,true,0x3A,false,
"I2C","data",42.8246877,0.0000852,true,,,0x0A
"I2C","start",42.82478855,0.00000005,,,,
"I2C","address",42.82479805,0.0000852,true,0x3A,true,
"I2C","data",42.82488835,0.0000852,false,,,0xC0
"I2C","stop",42.82498615,0.00000005,,,,
"I2C","start",43.091466,0.00000005,,,,
"I2C","address",43.09147805,0.0000852,true,0x3A,false,
"I2C","data",43.09156835,0.0000852,true,,,0x0A
"I2C","start",43.0916692,0.00000005,,,,
"I2C","address",43.09167875,0.0000852,true,0x3A,true,
"I2C","data",43.09176905,0.0000852,false,,,0x31
"I2C","stop",43.09186685,0.00000005,,,,
"I2C","start",43.3583566,0.00000005,,,,
"I2C","address",43.35836865,0.00008515,true,0x3A,false,
"I2C","data",43.35845895,0.0000852,true,,,0x0A
"I2C","start",43.3585598,0.00000005,,,,
"I2C","address",43.3585693,0.0000852,true,0x3A,true,
"I2C","data",43.3586596,0.0000852,false,,,0x88
"I2C","stop",43.35875745,0.00000005,,,,
"I2C","start",43.6248089,0.00000005,,,,
"I2C","address",43.62482095,0.0000852,true,0x3A,false,
"I2C","data",43.62491125,0.0000852,true,,,0x08
"I2C","start",43.62501215,0.00000005,,,,
"I2C","address",43.62502165,0.0000852,true,0x3A,true,
"I2C","data",43.625112,0.00008515,true,,,0x92
"I2C","data",43.6252023,0.0000852,false,,,0xD2
"I2C","stop",43.6253001,0.00000005,,,,
"I2C","start",43.6253486,0.00000005,,,,
"I2C","address",43.62536065,0.0000852,true,0x3A,false,
"I2C","data",43.625451,0.0000852,true,,,0x0A
"I2C","start",43.62555185,0.00000005,,,,
"I2C","address",43.62556135,0.0000852,true,0x3A,true,
"I2C","data",43.6256517,0.0000852,false,,,0x92
"I2C","stop",43.6257495,0.00000005,,,,
"I2C","start",43.8921234,0.00000005,,,,
"I2C","address",43.8921354,0.0000852,true,0x3A,false,
"I2C","data",43.89222575,0.0000852,true,,,0x0A
"I2C","start",43.8923266,0.00000005,,,,
"I2C","address",43.8923361,0.0000852,true,0x3A,true,
"I2C","data",43.89242645,0.00008515,false,,,0x2C
"I2C","stop",43.89252425,0.00000005,,,,
"I2C","start",44.1589943,0.00000005,,,,
"I2C","address",44.15900635,0.0000852,true,0x3A,false,
"I2C","data",44.15909665,0.0000852,true,,,0x0A
"I2C","start",44.1591975,0.00000005,,,,
"I2C","address",44.15920705,0.0000852,true,0x3A,true,
"I2C","data",44.15929735,0.0000852,false,,,0x22
"I2C","stop",44.15939515,0.00000005,,,,
"I2C","start",44.42588015,0.00000005,,,,
"I2C","address",44.4258922,0.0000852,true,0x3A,false,
"I2C","data",44.4259825,0.0000852,true,,,0x0A
"I2C","start",44.42608335,0.00000005,,,,
"I2C","address",44.4260929,0.0000852,true,0x3A,true,
"I2C","data",44.4261832,0.0000852,false,,,0x22
"I2C","stop",44.426281,0.00000005,,,,
"I2C","start",44.69276625,0.00000005,,,,
"I2C","address",44.6927783,0.0000852,true,0x3A,false,
"I2C","data",44.6928686,0.0000852,true,,,0x0A
"I2C","start",44.69296945,0.00000005,,,,
"I2C","address",44.692979,0.0000852,true,0x3A,true,
"I2C","data",44.6930693,0.0000852,false,,,0x3A
"I2C","stop",44.6931671,0.00000005,,,,
"I2C","start",44.95965505,0.00000005,,,,
"I2C","address",44.9596671,0.0000852,true,0x3A,false,
"I2C","data",44.95975745,0.00008515,true,,,0x0A
"I2C","start",44.95985825,0.00000005,,,,
"I2C","address",44.9598678,0.0000852,true,0x3A,true,
"I2C","data",44.9599581,0.0000852,false,,,0x5E
"I2C","stop",44.9600559,0.00000005,,,,
"I2C","start",45.22654055,0.00000005,,,,
"I2C","address",45.2265526,0.0000852,true,0x3A,false,
"I2C","data",45.2266429,0.0000852,true,,,0x0A
"I2C","start",45.22674375,0.00000005,,,,
"I2C","address",45.2267533,0.0000852,true,0x3A,true,
"I2C","data",45.2268436,0.0000852,false,,,0x0B
"I2C","stop",45.2269414,0.00000005,,,,
"I2C","start",45.4934084,0.00000005,,,,
"I2C","address",45.49342045,0.0000852,true,0x3A,false,
"I2C","data",45.49351075,0.0000852,true,,,0x0A
"I2C","start",45.49361165,0.00000005,,,,
"I2C","address",45.49362115,0.0000852,true,0x3A,true,
"I2C","data",45.49371145,0.0000852,false,,,0x5E
"I2C","stop",45.4938093,0.00000005,,,,
"I2C","start",45.7598715,0.00000005,,,,
"I2C","address",45.7598835,0.0000852,true,0x3A,false,
"I2C","data",45.75997385,0.0000852,true,,,0x08
"I2C","start",45.7600747,0.00000005,,,,
"I2C","address",45.7600842,0.0000852,true,0x3A,true,
"I2C","data",45.76017455,0.0000852,true,,,0x65
"I2C","data",45.76026485,0.0000852,false,,,0xA0
"I2C","stop",45.76036265,0.00000005,,,,
"I2C","start",45.7604041,0.00000005,,,,
"I2C","address",45.76041615,0.0000852,true,0x3A,false,
"I2C","data",45.76050645,0.0000852,true,,,0x0A
"I2C","start",45.7606073,0.00000005,,,,
"I2C","address",45.76061685,0.0000852,true,0x3A,true,
"I2C","data",45.76070715,0.0000852,false,,,0x65
"I2C","stop",45.76080495,0.00000005,,,,
"I2C","start",46.02717915,0.00000005,,,,
"I2C","address",46.0271912,0.0000852,true,0x3A,false,
"I2C","data",46.0272815,0.0000852,true,,,0x0A
"I2C","start",46.02738235,0.00000005,,,,
"I2C","address",46.0273919,0.0000852,true,0x3A,true,
"I2C","data",46.0274822,0.0000852,false,,,0x9F
"I2C","stop",46.02758,0.00000005,,,,
"I2C","start",46.29407005,0.00000005,,,,
"I2C","address",46.2940821,0.0000852,true,0x3A,false,
"I2C","data",46.2941724,0.0000852,true,,,0x0A
"I2C","start",46.29427325,0.00000005,,,,
"I2C","address",46.2942828,0.0000852,true,0x3A,true,
"I2C","data",46.2943731,0.00008525,false,,,0xCA
"I2C","stop",46.29447095,0.00000005,,,,
"I2C","start",46.5609488,0.00000005,,,,
"I2C","address",46.56096085,0.0000852,true,0x3A,false,
"I2C","data",46.56105115,0.00008525,true,,,0x0A
"I2C","start",46.56115205,0.00000005,,,,
"I2C","address",46.56116155,0.0000852,true,0x3A,true,
"I2C","data",46.5612519,0.0000852,false,,,0xCA
"I2C","stop",46.5613497,0.00000005,,,,
"I2C","start",46.8278399,0.00000005,,,,
"I2C","address",46.82785195,0.0000852,true,0x3A,false,
"I2C","data",46.82794225,0.0000852,true,,,0x0A
"I2C","start",46.8280431,0.00000005,,,,
"I2C","address",46.82805265,0.0000852,true,0x3A,true,
"I2C","data",46.82814295,0.00008525,false,,,0x98
"I2C","stop",46.8282408,0.00000005,,,,
"I2C","start",47.0947187,0.00000005,,,,
"I2C","address",47.09473075,0.0000852,true,0x3A,false,
"I2C","data",47.0948211,0.0000852,true,,,0x0A
"I2C","start",47.09492195,0.00000005,,,,
"I2C","address",47.0949315,0.0000852,true,0x3A,true,
"I2C","data",47.0950218,0.0000852,false,,,0x0B
"I2C","stop",47.0951196,0.00000005,,,,
"I2C","start",47.3615918,0.00000005,,,,
"I2C","address",47.3616038,0.0000852,true,0x3A,false,
"I2C","data",47.36169415,0.0000852,true,,,0x0A
"I2C","start",47.361795,0.00000005,,,,
"I2C","address",47.3618045,0.00008525,true,0x3A,true,
"I2C","data",47.36189485,0.0000852,false,,,0x8A
"I2C","stop",47.36199265,0.00000005,,,,
"I2C","start",47.6284776,0.00000005,,,,
"I2C","address",47.62848965,0.0000852,true,0x3A,false,
"I2C","data",47.62857995,0.0000852,true,,,0x0A
"I2C","start",47.62868085,0.00000005,,,,
"I2C","address",47.62869035,0.0000852,true,0x3A,true,
"I2C","data",47.62878065,0.0000852,false,,,0xC1
"I2C","stop",47.6288785,0.00000005,,,,
"I2C","start",47.8949414,0.00000005,,,,
"I2C","address",47.8949534,0.0000852,true,0x3A,false,
"I2C","data",47.89504375,0.0000852,true,,,0x08
"I2C","start",47.8951446,0.00000005,,,,
"I2C","address",47.8951541,0.0000852,true,0x3A,true,
"I2C","data",47.89524445,0.0000852,true,,,0xF6
"I2C","data",47.89533475,0.0000852,false,,,0xD1
"I2C","stop",47.89543255,0.00000005,,,,
"I2C","start",47.8954811,0.00000005,,,,
"I2C","address",47.89549315,0.0000852,true,0x3A,false,
"I2C","data",47.89558345,0.0000852,true,,,0x0A
"I2C","start",47.8956843,0.00000005,,,,
"I2C","address",47.89569385,0.0000852,true,0x3A,true,
"I2C","data",47.89578415,0.0000852,false,,,0xF6
"I2C","stop",47.89588195,0.00000005,,,,
"I2C","start",48.16224185,0.00000005,,,,
"I2C","address",48.16225385,0.0000852,true,0x3A,false,
"I2C","data",48.1623442,0.0000852,true,,,0x0A
"I2C","start",48.16244505,0.00000005,,,,
"I2C","address",48.16245455,0.0000852,true,0x3A,true,
"I2C","data",48.1625449,0.0000852,false,,,0x3B
"I2C","stop",48.1626427,0.00000005,,,,
"I2C","start",48.42913395,0.00000005,,,,
"I2C","address",48.429146,0.0000852,true,0x3A,false,
"I2C","data",48.4292363,0.0000852,true,,,0x0A
"I2C","start",48.42933715,0.00000005,,,,
"I2C","address",48.42934665,0.00008525,true,0x3A,true,
"I2C","data",48.429437,0.0000852,false,,,0xF7
"I2C","stop",48.4295348,0.00000005,,,,
"I2C","start",48.6960088,0.00000005,,,,
"I2C","address",48.69602085,0.0000852,true,0x3A,false,
"I2C","data",48.69611115,0.0000852,true,,,0x0A
"I2C","start",48.696212,0.00000005,,,,
"I2C","address",48.6962215,0.0000852,true,0x3A,true,
"I2C","data",48.69631185,0.0000852,false,,,0x24
"I2C","stop",48.69640965,0.00000005,,,,
"I2C","start",48.9628975,0.00000005,,,,
"I2C","address",48.96290955,0.0000852,true,0x3A,false,
"I2C","data",48.96299985,0.0000852,true,,,0x0A
"I2C","start",48.9631007,0.00000005,,,,
"I2C","address",48.96311025,0.00008515,true,0x3A,true,
"I2C","data",48.96320055,0.00008515,false,,,0xCA
"I2C","stop",48.96329835,0.00000005,,,,
"I2C","start",49.22978415,0.00000005,,,,
"I2C","address",49.2297962,0.0000852,true,0x3A,false,
"I2C","data",49.2298865,0.0000852,true,,,0x0A
"I2C","start",49.22998735,0.00000005,,,,
"I2C","address",49.2299969,0.0000852,true,0x3A,true,
"I2C","data",49.2300872,0.0000852,false,,,0xF4
"I2C","stop",49.230185,0.00000005,,,,
"I2C","start",49.4966607,0.00000005,,,,
"I2C","address",49.4966727,0.0000852,true,0x3A,false,
"I2C","data",49.49676305,0.0000852,true,,,0x0A
"I2C","start",49.4968639,0.00000005,,,,
"I2C","address",49.4968734,0.0000852,true,0x3A,true,
"I2C","data",49.49696375,0.0000852,false,,,0xF6
"I2C","stop",49.49706155,0.00000005,,,,
"I2C","start",49.7635556,0.00000005,,,,
"I2C","address",49.76356765,0.0000852,true,0x3A,false,
"I2C","data",49.763658,0.0000852,true,,,0x0A
"I2C","start",49.76375885,0.00000005,,,,
"I2C","address",49.76376835,0.0000852,true,0x3A,true,
"I2C","data",49.7638587,0.0000852,false,,,0x02
"I2C","stop",49.7639565,0.00000005,,,,
"I2C","start",50.0300051,0.00000005,,,,
"I2C","address",50.03001715,0.0000852,true,0x3A,false,
"I2C","data",50.03010745,0.0000852,true,,,0x08
"I2C","start",50.03020835,0.00000005,,,,
"I2C","address",50.03021785,0.0000852,true,0x3A,true,
"I2C","data",50.0303082,0.00008515,true,,,0x52
"I2C","data",50.0303985,0.0000852,false,,,0x2C
"I2C","stop",50.0304963,0.00000005,,,,
"I2C","start",50.0305377,0.00000005,,,,
"I2C","address",50.0305497,0.0000852,true,0x3A,false,
"I2C","data",50.03064005,0.0000852,true,,,0x0A
"I2C","start",50.0307409,0.00000005,,,,
"I2C","address",50.0307504,0.0000852,true,0x3A,true,
"I2C","data",50.0308407,0.0000852,false,,,0x52
"I2C","stop",50.0309385,0.00000005,,,,
"I2C","start",50.2973217,0.00000005,,,,
"I2C","address",50.29733375,0.0000852,true,0x3A,false,
"I2C","data",50.29742405,0.0000852,true,,,0x0A
"I2C","start",50.29752495,0.00000005,,,,
"I2C","address",50.29753445,0.0000852,true,0x3A,true,
"I2C","data",50.2976248,0.0000852,false,,,0x5D
"I2C","stop",50.2977226,0.00000005,,,,
"I2C","start",50.5642077,0.00000005,,,,
"I2C","address",50.56421975,0.0000852,true,0x3A,false,
"I2C","data",50.5643101,0.0000852,true,,,0x0A
"I2C","start",50.56441095,0.00000005,,,,
"I2C","address",50.5644205,0.0000852,true,0x3A,true,
"I2C","data",50.5645108,0.00008525,false,,,0xDF
"I2C","stop",50.56460865,0.00000005,,,,
"I2C","start",50.8310799,0.00000005,,,,
"I2C","address",50.83109195,0.0000852,true,0x3A,false,
"I2C","data",50.83118225,0.0000852,true,,,0x0A
"I2C","start",50.83128315,0.00000005,,,,
"I2C","address",50.83129265,0.0000852,true,0x3A,true,
"I2C","data",50.831383,0.0000852,false,,,0x77
"I2C","stop",50.8314808,0.00000005,,,,
"I2C","start",51.0979689,0.00000005,,,,
"I2C","address",51.0979809,0.00008525,true,0x3A,false,
"I2C","data",51.09807125,0.0000852,true,,,0x0A
"I2C","start",51.09817215,0.00000005,,,,
"I2C","address",51.09818165,0.0000852,true,0x3A,true,
"I2C","data",51.098272,0.0000852,false,,,0x14
"I2C","stop",51.0983698,0.00000005,,,,
"I2C","start",51.3648527,0.00000005,,,,
"I2C","address",51.36486475,0.0000852,true,0x3A,false,
"I2C","data",51.3649551,0.0000852,true,,,0x0A
"I2C","start",51.36505595,0.00000005,,,,
"I2C","address",51.36506545,0.0000852,true,0x3A,true,
"I2C","data",51.3651558,0.0000852,false,,,0x46
"I2C","stop",51.3652536,0.00000005,,,,
"I2C","start",51.63173835,0.00000005,,,,
"I2C","address",51.6317504,0.0000852,true,0x3A,false,
"I2C","data",51.63184075,0.0000852,true,,,0x0A
"I2C","start",51.6319416,0.00000005,,,,
"I2C","address",51.6319511,0.00008525,true,0x3A,true,
"I2C","data",51.63204145,0.0000852,false,,,0x42
"I2C","stop",51.63213925,0.00000005,,,,
"I2C","start",51.8986256,0.00000005,,,,
"I2C","address",51.89863765,0.0000852,true,0x3A,false,
"I2C","data",51.898728,0.0000852,true,,,0x0A
"I2C","start",51.89882885,0.00000005,,,,
"I2C","address",51.89883835,0.0000852,true,0x3A,true,
"I2C","data",51.8989287,0.0000852,false,,,0x3C
"I2C","stop",51.8990265,0.00000005,,,,
"I2C","start",52.16506565,0.00000005,,,,
"I2C","address",52.1650777,0.0000852,true,0x3A,false,
"I2C","data",52.16516805,0.0000852,true,,,0x08
"I2C","start",52.1652689,0.00000005,,,,
"I2C","address",52.1652784,0.00008525,true,0x3A,true,
"I2C","data",52.16536875,0.0000852,true,,,0x2B
"I2C","data",52.1654591,0.0000852,false,,,0x7F
"I2C","stop",52.1655569,0.00000005,,,,
"I2C","start",52.1655989,0.00000005,,,,
"I2C","address",52.16561095,0.0000852,true,0x3A,false,
"I2C","data",52.16570125,0.0000852,true,,,0x0A
"I2C","start",52.16580215,0.00000005,,,,
"I2C","address",52.16581165,0.00008525,true,0x3A,true,
"I2C","data",52.165902,0.0000852,false,,,0x2B
"I2C","stop",52.1659998,0.00000005,,,,
"I2C","start",52.4323918,0.00000005,,,,
"I2C","address",52.43240385,0.0000852,true,0x3A,false,
"I2C","data",52.43249415,0.0000852,true,,,0x0A
"I2C","start",52.43259505,0.00000005,,,,
"I2C","address",52.43260455,0.0000852,true,0x3A,true,
"I2C","data",52.4326949,0.0000852,false,,,0xD5
"I2C","stop",52.4327927,0.00000005,,,,
"I2C","start",52.6992728,0.00000005,,,,
"I2C","address",52.69928485,0.00008525,true,0x3A,false,
"I2C","data",52.6993752,0.0000852,true,,,0x0A
"I2C","start",52.6994761,0.00000005,,,,
"I2C","address",52.6994856,0.0000852,true,0x3A,true,
"I2C","data",52.69957595,0.0000852,false,,,0xF3
"I2C","stop",52.69967375,0.00000005,,,,
"I2C","start",52.9661498,0.00000005,,,,
"I2C","address",52.96616185,0.0000852,true,0x3A,false,
"I2C","data",52.9662522,0.0000852,true,,,0x0A
"I2C","start",52.96635305,0.00000005,,,,
"I2C","address",52.96636255,0.00008525,true,0x3A,true,
"I2C","data",52.9664529,0.0000852,false,,,0xDF
"I2C","stop",52.9665507,0.00000005,,,,
"I2C","start",53.2330404,0.00000005,,,,
"I2C","address",53.23305245,0.0000852,true,0x3A,false,
"I2C","data",53.23314275,0.0000852,true,,,0x0A
"I2C","start",53.23324365,0.00000005,,,,
"I2C","address",53.23325315,0.0000852,true,0x3A,true,
"I2C","data",53.2333435,0.0000852,false,,,0x90
"I2C","stop",53.2334413,0.00000005,,,,
"I2C","start",53.499921,0.00000005,,,,
"I2C","address",53.499933,0.00008525,true,0x3A,false,
"I2C","data",53.50002335,0.0000852,true,,,0x0A
"I2C","start",53.50012425,0.00000005,,,,
"I2C","address",53.50013375,0.0000852,true,0x3A,true,
"I2C","data",53.50022405,0.0000852,false,,,0xAB
"I2C","stop",53.5003219,0.00000005,,,,
"I2C","start",53.76679665,0.00000005,,,,
"I2C","address",53.7668087,0.0000852,true,0x3A,false,
"I2C","data",53.766899,0.00008525,true,,,0x0A
"I2C","start",53.7669999,0.00000005,,,,
"I2C","address",53.7670094,0.00008525,true,0x3A,true,
"I2C","data",53.76709975,0.0000852,false,,,0xDD
"I2C","stop",53.76719755,0.00000005,,,,
"I2C","start",54.03367805,0.00000005,,,,
"I2C","address",54.0336901,0.0000852,true,0x3A,false,
"I2C","data",54.0337804,0.0000852,true,,,0x0A
"I2C","start",54.0338813,0.00000005,,,,
"I2C","address",54.0338908,0.0000852,true,0x3A,true,
"I2C","data",54.03398115,0.0000852,false,,,0x3C
"I2C","stop",54.03407895,0.00000005,,,,
